time	V(rpm)	I(L1)
0.000000000000000e+00	-3.819349e-03	6.639358e-06
9.999999717180685e-10	-9.552193e-04	6.639320e-06
1.999999943436137e-09	-7.639016e-07	6.639284e-06
5.822926556244738e-07	-2.224092e-04	6.921110e-06
1.162585311305512e-06	-4.440484e-04	7.788632e-06
1.742877966986549e-06	-6.656814e-04	9.241851e-06
2.323170622667587e-06	-8.873083e-04	1.128077e-05
2.903463278348625e-06	-1.108929e-03	1.390538e-05
3.483755934029662e-06	-1.330543e-03	1.711568e-05
4.064048589710698e-06	-1.552152e-03	2.091169e-05
8.128034652426393e-06	-3.103661e-03	6.332328e-05
1.625600677785778e-05	-6.202597e-03	2.284332e-04
3.251195102872057e-05	-1.237381e-02	8.340495e-04
6.041356624994250e-05	-2.291277e-02	2.301934e-03
6.141356624994250e-05	-2.328842e-02	2.367432e-03
6.741356624994250e-05	-2.552838e-02	2.830077e-03
7.541356624994250e-05	-2.849621e-02	3.511369e-03
9.241356624994249e-05	-3.476605e-02	5.075239e-03
9.841356624994249e-05	-3.695200e-02	5.701508e-03
1.094135662499425e-04	-4.093435e-02	6.907430e-03
1.222707091070853e-04	-4.554034e-02	8.455077e-03
1.351278519642282e-04	-5.007129e-02	1.009753e-02
1.479849948213710e-04	-5.452718e-02	1.183478e-02
1.608421376785139e-04	-5.890801e-02	1.366684e-02
1.736992805356567e-04	-6.321380e-02	1.559369e-02
1.865564233927996e-04	-6.744453e-02	1.761536e-02
1.994135662499424e-04	-7.160021e-02	1.973182e-02
2.219849948213710e-04	-7.869496e-02	2.364324e-02
2.445564233927996e-04	-8.547695e-02	2.769623e-02
2.671278519642282e-04	-9.194619e-02	3.189079e-02
2.896992805356568e-04	-9.810267e-02	3.622691e-02
3.122707091070854e-04	-1.039464e-01	4.070461e-02
3.348421376785140e-04	-1.094774e-01	4.532387e-02
3.574135662499425e-04	-1.146956e-01	5.008471e-02
3.934135662499427e-04	-1.223091e-01	5.785428e-02
4.294135662499429e-04	-1.289945e-01	6.573499e-02
4.654135662499431e-04	-1.347520e-01	7.372686e-02
5.014135662499432e-04	-1.395814e-01	8.182988e-02
5.374135662499435e-04	-1.434828e-01	9.004404e-02
5.734135662499436e-04	-1.464562e-01	9.836935e-02
6.094135662499437e-04	-1.485015e-01	1.068058e-01
6.289849948213724e-04	-1.491978e-01	1.113877e-01
6.485564233928012e-04	-1.496079e-01	1.159794e-01
6.681278519642300e-04	-1.497317e-01	1.205809e-01
6.876992805356587e-04	-1.495693e-01	1.251920e-01
7.072707091070874e-04	-1.491207e-01	1.298130e-01
7.268421376785162e-04	-1.483859e-01	1.344436e-01
7.464135662499449e-04	-1.473648e-01	1.390841e-01
8.238421376785170e-04	-1.405054e-01	1.575212e-01
9.012707091070892e-04	-1.291099e-01	1.759776e-01
9.786992805356613e-04	-1.131785e-01	1.944532e-01
1.056127851964234e-03	-9.271098e-02	2.129481e-01
1.133556423392806e-03	-6.770746e-02	2.314622e-01
1.210984994821378e-03	-3.816792e-02	2.499955e-01
1.288413566249950e-03	-4.092355e-03	2.685481e-01
1.295413566249950e-03	-7.877306e-04	2.702231e-01
1.304984994821378e-03	3.790593e-03	2.725133e-01
1.314556423392807e-03	8.438267e-03	2.748035e-01
1.324127851964236e-03	1.315529e-02	2.770935e-01
1.333699280535664e-03	1.794167e-02	2.793836e-01
1.343270709107093e-03	2.279740e-02	2.816735e-01
1.352842137678522e-03	2.772248e-02	2.839634e-01
1.362413566249950e-03	3.271692e-02	2.862532e-01
1.456181423392808e-03	8.532285e-02	3.086826e-01
1.549949280535666e-03	1.445587e-01	3.311013e-01
1.643717137678524e-03	2.104246e-01	3.535093e-01
1.737484994821382e-03	2.829204e-01	3.759066e-01
1.831252851964240e-03	3.620461e-01	3.982932e-01
1.925020709107099e-03	4.478018e-01	4.206691e-01
2.018788566249956e-03	5.401875e-01	4.430342e-01
2.084074280535671e-03	6.084094e-01	4.585986e-01
2.149359994821386e-03	6.798282e-01	4.741575e-01
2.214645709107101e-03	7.544440e-01	4.897108e-01
2.279931423392816e-03	8.322567e-01	5.052586e-01
2.345217137678531e-03	9.132664e-01	5.208008e-01
2.410502851964245e-03	9.974731e-01	5.363375e-01
2.475788566249960e-03	1.084877e+00	5.518686e-01
2.479788566249960e-03	1.090334e+00	5.528200e-01
2.609931423392818e-03	1.274502e+00	5.837629e-01
2.740074280535677e-03	1.471289e+00	6.146839e-01
2.870217137678535e-03	1.680696e+00	6.455829e-01
3.000359994821394e-03	1.902722e+00	6.764599e-01
3.130502851964252e-03	2.137368e+00	7.073150e-01
3.260645709107110e-03	2.384634e+00	7.381481e-01
3.390788566249968e-03	2.644519e+00	7.689592e-01
3.567074280535684e-03	3.016625e+00	8.106596e-01
3.743359994821400e-03	3.411647e+00	8.523200e-01
3.919645709107116e-03	3.829584e+00	8.939406e-01
4.095931423392832e-03	4.270437e+00	9.355213e-01
4.272217137678548e-03	4.734206e+00	9.770621e-01
4.448502851964264e-03	5.220891e+00	1.018563e+00
4.624788566249980e-03	5.730491e+00	1.060024e+00
4.867788566249981e-03	6.470144e+00	1.117111e+00
5.130074280535698e-03	7.317273e+00	1.178644e+00
5.392359994821415e-03	8.214264e+00	1.240089e+00
5.654645709107131e-03	9.161118e+00	1.301448e+00
5.916931423392849e-03	1.015783e+01	1.362721e+00
6.179217137678565e-03	1.120441e+01	1.423906e+00
6.441502851964282e-03	1.230085e+01	1.485005e+00
6.703788566249998e-03	1.344716e+01	1.546016e+00
6.782502851964284e-03	1.380073e+01	1.564310e+00
6.861217137678571e-03	1.415875e+01	1.582596e+00
6.939931423392857e-03	1.452121e+01	1.600874e+00
7.018645709107143e-03	1.488810e+01	1.619144e+00
7.097359994821430e-03	1.525943e+01	1.637407e+00
7.176074280535716e-03	1.563521e+01	1.655662e+00
7.254788566250002e-03	1.601542e+01	1.673909e+00
7.256788566250003e-03	1.602514e+01	1.674372e+00
7.597788566250006e-03	1.772449e+01	1.753330e+00
7.938788566250009e-03	1.950597e+01	1.832145e+00
8.279788566250012e-03	2.136959e+01	1.910817e+00
8.620788566250015e-03	2.331535e+01	1.989346e+00
8.961788566250017e-03	2.534324e+01	2.067732e+00
9.302788566250020e-03	2.745327e+01	2.145975e+00
9.643788566250023e-03	2.964544e+01	2.224074e+00
9.647788566250023e-03	2.967163e+01	2.224990e+00
9.703194775732140e-03	3.003554e+01	2.237806e+00
9.758600985214257e-03	3.040159e+01	2.250532e+00
9.814007194696373e-03	3.076978e+01	2.263167e+00
9.869413404178490e-03	3.114010e+01	2.275711e+00
9.924819613660606e-03	3.151256e+01	2.288165e+00
9.980225823142723e-03	3.188715e+01	2.300528e+00
1.003563203262484e-02	3.226389e+01	2.312800e+00
1.017163203262484e-02	3.319743e+01	2.324436e+00
1.030763203262484e-02	3.413128e+01	2.333224e+00
1.044363203262484e-02	3.506542e+01	2.339165e+00
1.057963203262484e-02	3.599988e+01	2.342258e+00
1.071563203262484e-02	3.693463e+01	2.342503e+00
1.085163203262484e-02	3.786968e+01	2.339901e+00
1.098763203262484e-02	3.880504e+01	2.334451e+00
1.246848917548200e-02	4.888338e+01	2.316958e+00
1.394934631833916e-02	5.882323e+01	2.299692e+00
1.543020346119631e-02	6.862459e+01	2.282656e+00
1.691106060405347e-02	7.828746e+01	2.265848e+00
1.839191774691063e-02	8.781184e+01	2.249269e+00
1.987277488976779e-02	9.719773e+01	2.232919e+00
2.135363203262495e-02	1.064451e+02	2.216798e+00
2.185991774691067e-02	1.095779e+02	2.211343e+00
2.236620346119639e-02	1.126955e+02	2.205914e+00
2.287248917548211e-02	1.157980e+02	2.200512e+00
2.337877488976784e-02	1.188854e+02	2.195136e+00
2.388506060405356e-02	1.219576e+02	2.189787e+00
2.439134631833928e-02	1.250147e+02	2.184464e+00
2.489763203262500e-02	1.280567e+02	2.179167e+00
2.490163203262500e-02	1.280807e+02	2.179125e+00
2.755163203262505e-02	1.437382e+02	2.151862e+00
3.020163203262509e-02	1.590229e+02	2.125248e+00
3.285163203262514e-02	1.739349e+02	2.099283e+00
3.550163203262519e-02	1.884741e+02	2.073967e+00
3.815163203262523e-02	2.026406e+02	2.049301e+00
4.080163203262527e-02	2.164343e+02	2.025283e+00
4.345163203262531e-02	2.298553e+02	2.001914e+00
4.346763203262531e-02	2.299354e+02	2.001775e+00
4.612106060405393e-02	2.430339e+02	1.978967e+00
4.877448917548254e-02	2.558202e+02	1.956704e+00
5.142791774691116e-02	2.682943e+02	1.934984e+00
5.408134631833977e-02	2.804562e+02	1.913807e+00
5.673477488976839e-02	2.923059e+02	1.893174e+00
5.938820346119701e-02	3.038433e+02	1.873085e+00
6.204163203262562e-02	3.150685e+02	1.853540e+00
6.210563203262562e-02	3.153362e+02	1.853074e+00
6.599034631833998e-02	3.312294e+02	1.825400e+00
6.987506060405435e-02	3.465851e+02	1.798663e+00
7.375977488976870e-02	3.614032e+02	1.772861e+00
7.764448917548307e-02	3.756839e+02	1.747995e+00
8.152920346119744e-02	3.894270e+02	1.724066e+00
8.541391774691180e-02	4.026325e+02	1.701072e+00
8.929863203262615e-02	4.153006e+02	1.679014e+00
8.936263203262615e-02	4.155062e+02	1.678656e+00
9.401634631834054e-02	4.300536e+02	1.653326e+00
9.867006060405492e-02	4.440247e+02	1.629000e+00
1.033237748897693e-01	4.574193e+02	1.605677e+00
1.079774891754837e-01	4.702375e+02	1.583357e+00
1.126312034611981e-01	4.824792e+02	1.562042e+00
1.172849177469125e-01	4.941446e+02	1.541730e+00
1.219386320326268e-01	5.052335e+02	1.522422e+00
1.220026320326268e-01	5.053833e+02	1.522161e+00
1.281932034611984e-01	5.193570e+02	1.497830e+00
1.343837748897699e-01	5.326191e+02	1.474738e+00
1.405743463183415e-01	5.451695e+02	1.452885e+00
1.467649177469131e-01	5.570082e+02	1.432271e+00
1.529554891754846e-01	5.681352e+02	1.412897e+00
1.591460606040562e-01	5.785505e+02	1.394761e+00
1.653366320326277e-01	5.882542e+02	1.377865e+00
1.654006320326278e-01	5.883527e+02	1.377694e+00
1.750217748897708e-01	6.022554e+02	1.353486e+00
1.846429177469139e-01	6.151483e+02	1.331037e+00
1.942640606040570e-01	6.270314e+02	1.310346e+00
2.038852034612001e-01	6.379045e+02	1.291413e+00
2.135063463183431e-01	6.477679e+02	1.274239e+00
2.231274891754862e-01	6.566213e+02	1.258823e+00
2.327486320326293e-01	6.644649e+02	1.245166e+00
2.327526320326293e-01	6.644681e+02	1.245160e+00
2.538759177469151e-01	6.789030e+02	1.220026e+00
2.749992034612010e-01	6.915265e+02	1.198046e+00
2.961224891754869e-01	7.023388e+02	1.179220e+00
3.172457748897728e-01	7.113397e+02	1.163547e+00
3.383690606040587e-01	7.185293e+02	1.151028e+00
3.594923463183446e-01	7.239076e+02	1.141664e+00
3.806156320326305e-01	7.274745e+02	1.135453e+00
3.811276320326305e-01	7.275722e+02	1.135283e+00
4.083234891754879e-01	7.317043e+02	1.128088e+00
4.355193463183453e-01	7.352481e+02	1.121918e+00
4.627152034612028e-01	7.382036e+02	1.116771e+00
4.899110606040602e-01	7.405708e+02	1.112650e+00
5.171069177469176e-01	7.423497e+02	1.109552e+00
5.443027748897751e-01	7.435403e+02	1.107479e+00
5.714986320326324e-01	7.441427e+02	1.106430e+00
5.725226320326324e-01	7.441735e+02	1.106376e+00
7.628946320326344e-01	7.467718e+02	1.101852e+00
9.532676320326363e-01	7.471833e+02	1.101136e+00
1.143642632032630e+00	7.472484e+02	1.101022e+00
1.334021632032622e+00	7.472587e+02	1.101004e+00
1.524408632032614e+00	7.472604e+02	1.101002e+00
1.714811632032605e+00	7.472607e+02	1.101001e+00
1.905246632032597e+00	7.472607e+02	1.101001e+00
2.095745632032599e+00	7.472607e+02	1.101001e+00
2.286372632032611e+00	7.472607e+02	1.101001e+00
2.477255632032624e+00	7.472607e+02	1.101001e+00
2.668650632032636e+00	7.472607e+02	1.101001e+00
2.859022632032648e+00	7.472607e+02	1.101001e+00
3.049395632032661e+00	7.472607e+02	1.101001e+00
3.239770632032673e+00	7.472607e+02	1.101001e+00
3.430149632032685e+00	7.472607e+02	1.101001e+00
3.620536632032697e+00	7.472607e+02	1.101001e+00
3.810939632032710e+00	7.472607e+02	1.101001e+00
4.001374632032721e+00	7.472607e+02	1.101001e+00
4.191873632032734e+00	7.472607e+02	1.101001e+00
4.382500632032746e+00	7.472607e+02	1.101001e+00
4.573383632032758e+00	7.472607e+02	1.101001e+00
4.764778632032771e+00	7.472607e+02	1.101001e+00
4.955150632032783e+00	7.472607e+02	1.101001e+00
5.145523632032796e+00	7.472607e+02	1.101001e+00
5.335898632032808e+00	7.472607e+02	1.101001e+00
5.526277632032820e+00	7.472607e+02	1.101001e+00
5.716664632032832e+00	7.472607e+02	1.101001e+00
5.907067632032844e+00	7.472607e+02	1.101001e+00
6.097502632032857e+00	7.472607e+02	1.101001e+00
6.288001632032869e+00	7.472607e+02	1.101001e+00
6.478628632032882e+00	7.472607e+02	1.101001e+00
6.669511632032894e+00	7.472607e+02	1.101001e+00
6.860906632032906e+00	7.472607e+02	1.101001e+00
7.051278632032918e+00	7.472607e+02	1.101001e+00
7.241651632032931e+00	7.472607e+02	1.101001e+00
7.432026632032943e+00	7.472607e+02	1.101001e+00
7.622405632032955e+00	7.472607e+02	1.101001e+00
7.812792632032967e+00	7.472607e+02	1.101001e+00
8.003195632032977e+00	7.472607e+02	1.101001e+00
8.193630632032907e+00	7.472607e+02	1.101001e+00
8.384129632032836e+00	7.472607e+02	1.101001e+00
8.574756632032766e+00	7.472607e+02	1.101001e+00
8.765639632032697e+00	7.472607e+02	1.101001e+00
8.957034632032626e+00	7.472607e+02	1.101001e+00
9.147406632032554e+00	7.472607e+02	1.101001e+00
9.337779632032484e+00	7.472607e+02	1.101001e+00
9.528154632032415e+00	7.472607e+02	1.101001e+00
9.718533632032344e+00	7.472607e+02	1.101001e+00
9.908920632032274e+00	7.472607e+02	1.101001e+00
1.001000000000000e+01	7.472607e+02	1.101001e+00
1.001006898062776e+01	7.472617e+02	1.095498e+00
1.001013796125553e+01	7.472601e+02	1.088140e+00
1.001020694188329e+01	7.472560e+02	1.078928e+00
1.001027592251106e+01	7.472492e+02	1.067861e+00
1.001034490313882e+01	7.472399e+02	1.054940e+00
1.001041388376659e+01	7.472280e+02	1.040165e+00
1.001048286439435e+01	7.472134e+02	1.023535e+00
1.001125086439436e+01	7.468062e+02	8.421528e-01
1.001159186439437e+01	7.464826e+02	7.608110e-01
1.001193286439437e+01	7.460723e+02	6.796175e-01
1.001227386439438e+01	7.455754e+02	5.985723e-01
1.001261486439438e+01	7.449918e+02	5.176753e-01
1.001295586439439e+01	7.443216e+02	4.369266e-01
1.001329686439439e+01	7.435648e+02	3.563261e-01
1.001363786439439e+01	7.427214e+02	2.758740e-01
1.001363986439439e+01	7.427162e+02	2.754026e-01
1.001381086439440e+01	7.422610e+02	2.351166e-01
1.001398186439440e+01	7.417844e+02	1.948680e-01
1.001415286439440e+01	7.412863e+02	1.546566e-01
1.001432386439440e+01	7.407669e+02	1.144825e-01
1.001449486439440e+01	7.402261e+02	7.434562e-02
1.001466586439441e+01	7.396638e+02	3.424607e-02
1.001483686439441e+01	7.390801e+02	-5.816198e-03
1.001500686439441e+01	7.384788e+02	-4.560745e-02
1.001517686439441e+01	7.378565e+02	-8.536228e-02
1.001534686439442e+01	7.372133e+02	-1.250807e-01
1.001551686439442e+01	7.365492e+02	-1.647627e-01
1.001568686439442e+01	7.358642e+02	-2.044082e-01
1.001585686439442e+01	7.351583e+02	-2.440174e-01
1.001602686439442e+01	7.344315e+02	-2.835901e-01
1.001603086439443e+01	7.344141e+02	-2.845208e-01
1.001637186439443e+01	7.328920e+02	-3.637873e-01
1.001671286439443e+01	7.312871e+02	-4.429098e-01
1.001705386439444e+01	7.295995e+02	-5.218883e-01
1.001739486439444e+01	7.278293e+02	-6.007227e-01
1.001773586439445e+01	7.259763e+02	-6.794132e-01
1.001807686439445e+01	7.240406e+02	-7.579595e-01
1.001841786439446e+01	7.220222e+02	-8.363619e-01
1.001841886439446e+01	7.220161e+02	-8.365916e-01
1.002000000000000e+01	7.115950e+02	-1.198275e+00
1.002006841849175e+01	7.111041e+02	-1.209257e+00
1.002013683698349e+01	7.106123e+02	-1.218121e+00
1.002020525547524e+01	7.101198e+02	-1.224867e+00
1.002027367396699e+01	7.096265e+02	-1.229494e+00
1.002034209245874e+01	7.091323e+02	-1.232003e+00
1.002041051095048e+01	7.086373e+02	-1.232393e+00
1.002047892944223e+01	7.081415e+02	-1.230665e+00
1.002530492944220e+01	6.740187e+02	-1.173723e+00
1.002796292944218e+01	6.559221e+02	-1.142213e+00
1.003062092944216e+01	6.382575e+02	-1.111456e+00
1.003327892944214e+01	6.210250e+02	-1.081450e+00
1.003593692944212e+01	6.042245e+02	-1.052197e+00
1.003859492944210e+01	5.878560e+02	-1.023696e+00
1.004125292944208e+01	5.719196e+02	-9.959472e-01
1.004391092944206e+01	5.564152e+02	-9.689507e-01
1.004391192944206e+01	5.564094e+02	-9.689407e-01
1.004656107229919e+01	5.413453e+02	-9.427108e-01
1.004921021515631e+01	5.266397e+02	-9.171052e-01
1.005185935801344e+01	5.122926e+02	-8.921239e-01
1.005450850087056e+01	4.983040e+02	-8.677668e-01
1.005715764372768e+01	4.846740e+02	-8.440340e-01
1.005980678658481e+01	4.714024e+02	-8.209254e-01
1.006245592944193e+01	4.584894e+02	-7.984411e-01
1.006245992944193e+01	4.584702e+02	-7.984076e-01
1.006510992944192e+01	4.458778e+02	-7.764817e-01
1.006775992944190e+01	4.335853e+02	-7.550778e-01
1.007040992944188e+01	4.215926e+02	-7.341959e-01
1.007305992944186e+01	4.098996e+02	-7.138360e-01
1.007570992944184e+01	3.985065e+02	-6.939980e-01
1.007835992944182e+01	3.874131e+02	-6.746821e-01
1.008100992944180e+01	3.766195e+02	-6.558881e-01
1.008102592944180e+01	3.765551e+02	-6.557759e-01
1.008534092944179e+01	3.596007e+02	-6.262546e-01
1.008965592944177e+01	3.432749e+02	-5.978280e-01
1.009397092944176e+01	3.275778e+02	-5.704960e-01
1.009828592944174e+01	3.125093e+02	-5.442585e-01
1.010260092944173e+01	2.980695e+02	-5.191157e-01
1.010691592944171e+01	2.842583e+02	-4.950676e-01
1.011123092944170e+01	2.710758e+02	-4.721140e-01
1.011126292944170e+01	2.709796e+02	-4.719465e-01
1.011555692944168e+01	2.583878e+02	-4.500214e-01
1.011985092944167e+01	2.462607e+02	-4.289056e-01
1.012414492944166e+01	2.345983e+02	-4.085989e-01
1.012843892944164e+01	2.234007e+02	-3.891015e-01
1.013273292944163e+01	2.126679e+02	-3.704133e-01
1.013702692944162e+01	2.023998e+02	-3.525343e-01
1.014132092944161e+01	1.925964e+02	-3.354646e-01
1.014390292944160e+01	1.868673e+02	-3.254890e-01
1.014783250087016e+01	1.784426e+02	-3.108198e-01
1.015176207229873e+01	1.703063e+02	-2.966528e-01
1.015569164372729e+01	1.624583e+02	-2.829878e-01
1.015962121515585e+01	1.548987e+02	-2.698249e-01
1.016355078658442e+01	1.476275e+02	-2.571641e-01
1.016748035801298e+01	1.406446e+02	-2.450054e-01
1.017140992944155e+01	1.339500e+02	-2.333488e-01
1.017444392944154e+01	1.289400e+02	-2.246252e-01
1.017747792944154e+01	1.240651e+02	-2.161371e-01
1.018051192944154e+01	1.193254e+02	-2.078842e-01
1.018354592944153e+01	1.147208e+02	-1.998666e-01
1.018657992944153e+01	1.102514e+02	-1.920844e-01
1.018961392944153e+01	1.059171e+02	-1.845374e-01
1.019264792944153e+01	1.017179e+02	-1.772258e-01
1.019267992944152e+01	1.016742e+02	-1.771497e-01
1.019643035801295e+01	9.665605e+01	-1.684120e-01
1.020018078658437e+01	9.180201e+01	-1.599601e-01
1.020393121515580e+01	8.711210e+01	-1.517939e-01
1.020768164372722e+01	8.258632e+01	-1.439136e-01
1.021143207229865e+01	7.822467e+01	-1.363190e-01
1.021518250087007e+01	7.402714e+01	-1.290102e-01
1.021893292944150e+01	6.999374e+01	-1.219872e-01
1.022225650087007e+01	6.653445e+01	-1.159638e-01
1.022558007229864e+01	6.317688e+01	-1.101176e-01
1.022890364372721e+01	5.992105e+01	-1.044485e-01
1.023222721515578e+01	5.676695e+01	-9.895654e-02
1.023555078658435e+01	5.371458e+01	-9.364171e-02
1.023887435801292e+01	5.076394e+01	-8.850403e-02
1.024219792944149e+01	4.791504e+01	-8.354348e-02
1.024541307229863e+01	4.524227e+01	-7.888962e-02
1.024862821515578e+01	4.264557e+01	-7.436821e-02
1.025184335801292e+01	4.012493e+01	-6.997924e-02
1.025505850087006e+01	3.768035e+01	-6.572270e-02
1.025827364372720e+01	3.531183e+01	-6.159861e-02
1.026148878658435e+01	3.301938e+01	-5.760696e-02
1.026470392944149e+01	3.080299e+01	-5.374774e-02
1.026537978658435e+01	3.034452e+01	-5.294946e-02
1.026605564372720e+01	2.988902e+01	-5.215634e-02
1.026673150087006e+01	2.943648e+01	-5.136836e-02
1.026740735801292e+01	2.898689e+01	-5.058554e-02
1.026808321515577e+01	2.854027e+01	-4.980787e-02
1.026875907229863e+01	2.809660e+01	-4.903535e-02
1.026943492944149e+01	2.765590e+01	-4.826799e-02
1.026956292944149e+01	2.757278e+01	-4.812327e-02
1.027237621515578e+01	2.577400e+01	-4.499121e-02
1.027518950087006e+01	2.402050e+01	-4.193799e-02
1.027800278658435e+01	2.231228e+01	-3.896361e-02
1.028081607229863e+01	2.064933e+01	-3.606806e-02
1.028362935801292e+01	1.903166e+01	-3.325135e-02
1.028644264372720e+01	1.745926e+01	-3.051347e-02
1.028925592944149e+01	1.593214e+01	-2.785444e-02
1.029185050087006e+01	1.455907e+01	-2.546363e-02
1.029444507229863e+01	1.321815e+01	-2.312878e-02
1.029703964372720e+01	1.190936e+01	-2.084991e-02
1.029963421515577e+01	1.063271e+01	-1.862699e-02
1.030222878658434e+01	9.388206e+00	-1.646004e-02
1.030482335801292e+01	8.175842e+00	-1.434906e-02
